
T1448 000:445 SEGGER J-Link V4.80g Log File (0001ms, 0266ms total)
T1448 000:445 DLL Compiled: Feb 13 2014 20:50:02 (0001ms, 0266ms total)
T1448 000:445 Logging started @ 2017-09-19 18:30 (0001ms, 0266ms total)
T1448 000:446 JLINK_SetWarnOutHandler(...) (0000ms, 0266ms total)
T1448 000:446 JLINK_OpenEx(...)
Firmware: J-Link ARM-OB STM32 compiled Aug 22 2012 19:52:04
Hardware: V7.00
S/N: 20090928
Feature(s): RDI,FlashDL,FlashBP,JFlash,GDBFull  returns O.K. (0263ms, 0529ms total)
T1448 000:709 JLINK_SetErrorOutHandler(...) (0000ms, 0529ms total)
T1448 000:709 JLINK_ExecCommand("ProjectFile = "R:\STM32_TK032AF196_硬件完整4线SPI正式版(SPI1)\JLinkSettings.ini"", ...)  returns 0x00 (0000ms, 0529ms total)
T1448 000:712 JLINK_ExecCommand("Device = STM32F103VE", ...)Device "STM32F103VE" selected (512 KB flash, 64 KB RAM).  returns 0x00 (0010ms, 0539ms total)
T1448 000:722 JLINK_ExecCommand("DisableConnectionTimeout", ...)  returns 0x01 (0000ms, 0539ms total)
T1448 000:722 JLINK_GetHardwareVersion()  returns 0x11170 (0000ms, 0539ms total)
T1448 000:722 JLINK_GetDLLVersion()  returns 48007 (0000ms, 0539ms total)
T1448 000:722 JLINK_GetFirmwareString(...) (0000ms, 0539ms total)
T1448 000:740 JLINK_GetDLLVersion()  returns 48007 (0000ms, 0539ms total)
T1448 000:740 JLINK_GetCompileDateTime() (0000ms, 0539ms total)
T1448 000:741 JLINK_GetFirmwareString(...) (0000ms, 0539ms total)
T1448 000:742 JLINK_GetHardwareVersion()  returns 0x11170 (0000ms, 0539ms total)
T1448 000:750 JLINK_TIF_Select(JLINKARM_TIF_SWD)  returns 0x00 (0001ms, 0540ms total)
T1448 000:751 JLINK_SetSpeed(10000) (0000ms, 0540ms total)
T1448 000:751 JLINK_GetId() >0x108 TIF>Found SWD-DP with ID 0x1BA01477 >0x0D TIF> >0x28 TIF> >0x0D TIF> >0x28 TIF> >0x0D TIF> >0x21 TIF> >0x0D TIF> >0x28 TIF> >0x0D TIF> >0x28 TIF> >0x0D TIF> >0x28 TIF> >0x0D TIF> >0x21 TIF> >0x0D TIF> >0x21 TIF> >0x0D TIF> >0x28 TIF> >0x0D TIF> >0x21 TIF> >0x0D TIF> >0x21 TIF> >0x108 TIF>Found SWD-DP with ID 0x1BA01477 >0x0D TIF> >0x21 TIF> >0x0D TIF> >0x28 TIF> >0x0D TIF> >0x28 TIF> >0x0D TIF> >0x21 TIF> >0x0D TIF> >0x28 TIF> >0x0D TIF> >0x21 TIF> >0x0D TIF> >0x21 TIF>
 >0x0D TIF> >0x21 TIF> >0x0D TIF> >0x21 TIF> >0x0D TIF> >0x28 TIF> >0x0D TIF> >0x28 TIF> >0x0D TIF> >0x21 TIF> >0x0D TIF> >0x28 TIF> >0x0D TIF> >0x28 TIF> >0x0D TIF> >0x28 TIF> >0x0D TIF> >0x21 TIF> >0x0D TIF> >0x21 TIF> >0x0D TIF> >0x28 TIF> >0x0D TIF> >0x21 TIF> >0x0D TIF> >0x21 TIF>Found Cortex-M3 r1p1, Little endian. -- CPU_WriteMem(4 bytes @ 0xE0002000) -- CPU_ReadMem(4 bytes @ 0xE000EDF0) -- CPU_ReadMem(4 bytes @ 0xE0002000)FPUnit: 6 code (BP) slots and 2 literal slots
 -- CPU_ReadMem(4 bytes @ 0xE000EDFC) -- CPU_ReadMem(4 bytes @ 0xE0001000) -- CPU_WriteMem(4 bytes @ 0xE0001000) -- CPU_ReadMem(4 bytes @ 0xE00FF010)TPIU fitted. -- CPU_ReadMem(4 bytes @ 0xE00FF014)ETM fitted. -- CPU_ReadMem(4 bytes @ 0xE00FF018) >0x0D TIF> >0x21 TIF>  returns 0x1BA01477 (0038ms, 0578ms total)
T1448 000:789 JLINK_GetDeviceFamily()  returns 3 (0000ms, 0578ms total)
T1448 000:790 JLINK_ReadMem (0xE00FFFF0, 0x0010 Bytes, ...) -- CPU is running -- CPU_ReadMem(16 bytes @ 0xE00FFFF0) -- Data:  0D 00 00 00 10 00 00 00 05 00 00 00 B1 00 00 00  returns 0x00 (0001ms, 0579ms total)
T1448 000:791 JLINK_ReadMem (0xE00FFFD0, 0x0020 Bytes, ...) -- CPU is running -- CPU_ReadMem(32 bytes @ 0xE00FFFD0) -- Data:  00 00 00 00 00 00 00 00 00 00 00 00 00 00 00 00 ...  returns 0x00 (0001ms, 0580ms total)
T1448 000:792 JLINK_ReadMem (0xE00FF000, 0x0018 Bytes, ...) -- CPU is running -- CPU_ReadMem(24 bytes @ 0xE00FF000) -- Data:  03 F0 F0 FF 03 20 F0 FF 03 30 F0 FF 03 10 F0 FF ...  returns 0x00 (0001ms, 0581ms total)
T1448 000:793 JLINK_ReadMemU32(0xE000ED00, 0x0001 Items, ...) -- CPU is running -- CPU_ReadMem(4 bytes @ 0xE000ED00) -- Data:  31 C2 1F 41  returns 0x01 (0000ms, 0581ms total)
T1448 000:793 JLINK_SetResetType(JLINKARM_RESET_TYPE_NORMAL)  returns JLINKARM_RESET_TYPE_NORMAL (0000ms, 0581ms total)
T1448 000:793 JLINK_Reset() -- CPU is running -- CPU_WriteMem(4 bytes @ 0xE000EDF0) -- CPU is running -- CPU_WriteMem(4 bytes @ 0xE000EDFC) >0x35 TIF> -- CPU is running -- CPU_WriteMem(4 bytes @ 0xE000ED0C) -- CPU is running -- CPU_ReadMem(4 bytes @ 0xE000EDF0) -- CPU is running -- CPU_ReadMem(4 bytes @ 0xE000EDF0) -- CPU is running -- CPU_WriteMem(4 bytes @ 0xE000EDF0) -- CPU is running -- CPU_WriteMem(4 bytes @ 0xE000EDFC) -- CPU is running -- CPU_ReadMem(4 bytes @ 0xE000EDF0)
 -- CPU_WriteMem(4 bytes @ 0xE0002000) -- CPU_ReadMem(4 bytes @ 0xE000EDFC) -- CPU_ReadMem(4 bytes @ 0xE0001000) (0020ms, 0601ms total)
T1448 000:813 JLINK_Halt()  returns 0x00 (0000ms, 0601ms total)
T1448 000:813 JLINK_IsHalted()  returns TRUE (0000ms, 0601ms total)
T1448 000:813 JLINK_ReadMemU32(0xE000EDF0, 0x0001 Items, ...) -- CPU_ReadMem(4 bytes @ 0xE000EDF0) -- Data:  03 00 03 00  returns 0x01 (0001ms, 0602ms total)
T1448 000:814 JLINK_WriteU32(0xE000EDF0, 0xA05F0003) -- CPU_WriteMem(4 bytes @ 0xE000EDF0)  returns 0x00 (0000ms, 0602ms total)
T1448 000:814 JLINK_WriteU32(0xE000EDFC, 0x01000000) -- CPU_WriteMem(4 bytes @ 0xE000EDFC)  returns 0x00 (0001ms, 0603ms total)
T1448 000:822 JLINK_GetHWStatus(...)  returns 0x00 (0000ms, 0603ms total)
T1448 000:826 JLINK_GetNumBPUnits(Type = 0xFFFFFF00)  returns 0x06 (0000ms, 0603ms total)
T1448 000:826 JLINK_GetNumBPUnits(Type = 0xF0)  returns 0x2000 (0000ms, 0603ms total)
T1448 000:826 JLINK_GetNumWPUnits()  returns 0x04 (0000ms, 0603ms total)
T1448 000:830 JLINK_GetSpeed()  returns 0xFA0 (0000ms, 0603ms total)
T1448 000:832 JLINK_ReadMemU32(0xE000E004, 0x0001 Items, ...) -- CPU_ReadMem(4 bytes @ 0xE000E004) -- Data:  01 00 00 00  returns 0x01 (0000ms, 0603ms total)
T1448 000:832 JLINK_ReadMemU32(0xE000E004, 0x0001 Items, ...) -- CPU_ReadMem(4 bytes @ 0xE000E004) -- Data:  01 00 00 00  returns 0x01 (0001ms, 0604ms total)
T1448 000:833 JLINK_WriteMem(0xE0001000, 0x001C Bytes, ...) -- Data:  01 00 00 00 00 00 00 00 00 00 00 00 00 00 00 00 ... -- CPU_WriteMem(28 bytes @ 0xE0001000)  returns 0x1C (0001ms, 0605ms total)
T1448 000:834 JLINK_ReadMem (0xE0001000, 0x001C Bytes, ...) -- CPU_ReadMem(28 bytes @ 0xE0001000) -- Data:  01 00 00 40 00 00 00 00 00 00 00 00 00 00 00 00 ...  returns 0x00 (0001ms, 0606ms total)
T1448 000:835 JLINK_Halt()  returns 0x00 (0000ms, 0606ms total)
T1448 000:835 JLINK_IsHalted()  returns TRUE (0000ms, 0606ms total)
T1448 000:838 JLINK_WriteMem(0x20000000, 0x0164 Bytes, ...) -- Data:  00 BE 0A E0 0D 78 2D 06 68 40 08 24 40 00 00 D3 ... -- CPU_WriteMem(356 bytes @ 0x20000000)  returns 0x164 (0005ms, 0611ms total)
T1448 000:843 JLINK_WriteReg(R0, 0x08000000)  returns 0x00 (0000ms, 0611ms total)
T1448 000:843 JLINK_WriteReg(R1, 0x007A1200)  returns 0x00 (0000ms, 0611ms total)
T1448 000:843 JLINK_WriteReg(R2, 0x00000001)  returns 0x00 (0000ms, 0611ms total)
T1448 000:843 JLINK_WriteReg(R3, 0x00000000)  returns 0x00 (0000ms, 0611ms total)
T1448 000:843 JLINK_WriteReg(R4, 0x00000000)  returns 0x00 (0000ms, 0611ms total)
T1448 000:843 JLINK_WriteReg(R5, 0x00000000)  returns 0x00 (0000ms, 0611ms total)
T1448 000:843 JLINK_WriteReg(R6, 0x00000000)  returns 0x00 (0000ms, 0611ms total)
T1448 000:843 JLINK_WriteReg(R7, 0x00000000)  returns 0x00 (0000ms, 0611ms total)
T1448 000:843 JLINK_WriteReg(R8, 0x00000000)  returns 0x00 (0000ms, 0611ms total)
T1448 000:843 JLINK_WriteReg(R9, 0x20000160)  returns 0x00 (0000ms, 0611ms total)
T1448 000:843 JLINK_WriteReg(R10, 0x00000000)  returns 0x00 (0000ms, 0611ms total)
T1448 000:843 JLINK_WriteReg(R11, 0x00000000)  returns 0x00 (0000ms, 0611ms total)
T1448 000:843 JLINK_WriteReg(R12, 0x00000000)  returns 0x00 (0000ms, 0611ms total)
T1448 000:843 JLINK_WriteReg(R13 (SP), 0x20000800)  returns 0x00 (0000ms, 0611ms total)
T1448 000:843 JLINK_WriteReg(R14, 0x20000001)  returns 0x00 (0000ms, 0611ms total)
T1448 000:844 JLINK_WriteReg(R15 (PC), 0x20000038)  returns 0x00 (0000ms, 0612ms total)
T1448 000:844 JLINK_WriteReg(XPSR, 0x01000000)  returns 0x00 (0000ms, 0612ms total)
T1448 000:844 JLINK_WriteReg(MSP, 0x20000800)  returns 0x00 (0000ms, 0612ms total)
T1448 000:844 JLINK_WriteReg(PSP, 0x20000800)  returns 0x00 (0000ms, 0612ms total)
T1448 000:844 JLINK_WriteReg(CFBP, 0x00000000)  returns 0x00 (0000ms, 0612ms total)
T1448 000:844 JLINK_SetBPEx(Addr = 0x20000000, Type = 0xFFFFFFF2) -- CPU_ReadMem(2 bytes @ 0x20000000)  returns 0x00000001 (0000ms, 0612ms total)
T1448 000:844 JLINK_Go() -- CPU_WriteMem(2 bytes @ 0x20000000) -- CPU_WriteMem(4 bytes @ 0xE0002008) -- CPU_WriteMem(4 bytes @ 0xE000200C) -- CPU_WriteMem(4 bytes @ 0xE0002010) -- CPU_WriteMem(4 bytes @ 0xE0002014) -- CPU_WriteMem(4 bytes @ 0xE0002018) -- CPU_WriteMem(4 bytes @ 0xE000201C) -- CPU_WriteMem(4 bytes @ 0xE0001004) (0008ms, 0620ms total)
T1448 000:852 JLINK_IsHalted() -- CPU_ReadMem(2 bytes @ 0x20000000)  returns TRUE (0003ms, 0623ms total)
T1448 000:855 JLINK_ReadReg(R15 (PC))  returns 0x20000000 (0000ms, 0620ms total)
T1448 000:856 JLINK_ClrBPEx(BPHandle = 0x00000001)  returns 0x00 (0000ms, 0621ms total)
T1448 000:856 JLINK_ReadReg(R0)  returns 0x00000000 (0000ms, 0621ms total)
T1448 000:856 JLINK_WriteReg(R0, 0x08000000)  returns 0x00 (0000ms, 0621ms total)
T1448 000:856 JLINK_WriteReg(R1, 0x007A1200)  returns 0x00 (0000ms, 0621ms total)
T1448 000:856 JLINK_WriteReg(R2, 0x00000001)  returns 0x00 (0000ms, 0621ms total)
T1448 000:856 JLINK_WriteReg(R3, 0x00000000)  returns 0x00 (0000ms, 0621ms total)
T1448 000:856 JLINK_WriteReg(R4, 0x00000000)  returns 0x00 (0000ms, 0621ms total)
T1448 000:856 JLINK_WriteReg(R5, 0x00000000)  returns 0x00 (0000ms, 0621ms total)
T1448 000:856 JLINK_WriteReg(R6, 0x00000000)  returns 0x00 (0000ms, 0621ms total)
T1448 000:856 JLINK_WriteReg(R7, 0x00000000)  returns 0x00 (0000ms, 0621ms total)
T1448 000:856 JLINK_WriteReg(R8, 0x00000000)  returns 0x00 (0000ms, 0621ms total)
T1448 000:856 JLINK_WriteReg(R9, 0x20000160)  returns 0x00 (0000ms, 0621ms total)
T1448 000:856 JLINK_WriteReg(R10, 0x00000000)  returns 0x00 (0000ms, 0621ms total)
T1448 000:856 JLINK_WriteReg(R11, 0x00000000)  returns 0x00 (0000ms, 0621ms total)
T1448 000:856 JLINK_WriteReg(R12, 0x00000000)  returns 0x00 (0000ms, 0621ms total)
T1448 000:856 JLINK_WriteReg(R13 (SP), 0x20000800)  returns 0x00 (0000ms, 0621ms total)
T1448 000:856 JLINK_WriteReg(R14, 0x20000001)  returns 0x00 (0000ms, 0621ms total)
T1448 000:856 JLINK_WriteReg(R15 (PC), 0x2000007C)  returns 0x00 (0000ms, 0621ms total)
T1448 000:856 JLINK_WriteReg(XPSR, 0x01000000)  returns 0x00 (0000ms, 0621ms total)
T1448 000:856 JLINK_WriteReg(MSP, 0x20000800)  returns 0x00 (0000ms, 0621ms total)
T1448 000:856 JLINK_WriteReg(PSP, 0x20000800)  returns 0x00 (0000ms, 0621ms total)
T1448 000:856 JLINK_WriteReg(CFBP, 0x00000000)  returns 0x00 (0000ms, 0621ms total)
T1448 000:856 JLINK_SetBPEx(Addr = 0x20000000, Type = 0xFFFFFFF2)  returns 0x00000002 (0000ms, 0621ms total)
T1448 000:856 JLINK_Go() (0002ms, 0623ms total)
T1448 000:858 JLINK_IsHalted()  returns FALSE (0000ms, 0623ms total)
T1448 000:896 JLINK_IsHalted() -- CPU_ReadMem(2 bytes @ 0x20000000)  returns TRUE (0004ms, 0627ms total)
T1448 000:900 JLINK_ReadReg(R15 (PC))  returns 0x20000000 (0000ms, 0623ms total)
T1448 000:900 JLINK_ClrBPEx(BPHandle = 0x00000002)  returns 0x00 (0000ms, 0623ms total)
T1448 000:900 JLINK_ReadReg(R0)  returns 0x00000000 (0000ms, 0623ms total)
T1448 000:951 JLINK_WriteReg(R0, 0x00000001)  returns 0x00 (0000ms, 0623ms total)
T1448 000:951 JLINK_WriteReg(R1, 0x007A1200)  returns 0x00 (0000ms, 0623ms total)
T1448 000:951 JLINK_WriteReg(R2, 0x00000001)  returns 0x00 (0000ms, 0623ms total)
T1448 000:951 JLINK_WriteReg(R3, 0x00000000)  returns 0x00 (0000ms, 0623ms total)
T1448 000:951 JLINK_WriteReg(R4, 0x00000000)  returns 0x00 (0000ms, 0623ms total)
T1448 000:951 JLINK_WriteReg(R5, 0x00000000)  returns 0x00 (0000ms, 0623ms total)
T1448 000:951 JLINK_WriteReg(R6, 0x00000000)  returns 0x00 (0000ms, 0623ms total)
T1448 000:951 JLINK_WriteReg(R7, 0x00000000)  returns 0x00 (0000ms, 0623ms total)
T1448 000:951 JLINK_WriteReg(R8, 0x00000000)  returns 0x00 (0000ms, 0623ms total)
T1448 000:951 JLINK_WriteReg(R9, 0x20000160)  returns 0x00 (0000ms, 0623ms total)
T1448 000:951 JLINK_WriteReg(R10, 0x00000000)  returns 0x00 (0000ms, 0623ms total)
T1448 000:951 JLINK_WriteReg(R11, 0x00000000)  returns 0x00 (0000ms, 0623ms total)
T1448 000:951 JLINK_WriteReg(R12, 0x00000000)  returns 0x00 (0000ms, 0623ms total)
T1448 000:951 JLINK_WriteReg(R13 (SP), 0x20000800)  returns 0x00 (0000ms, 0623ms total)
T1448 000:951 JLINK_WriteReg(R14, 0x20000001)  returns 0x00 (0000ms, 0623ms total)
T1448 000:951 JLINK_WriteReg(R15 (PC), 0x2000006A)  returns 0x00 (0000ms, 0623ms total)
T1448 000:951 JLINK_WriteReg(XPSR, 0x01000000)  returns 0x00 (0001ms, 0624ms total)
T1448 000:952 JLINK_WriteReg(MSP, 0x20000800)  returns 0x00 (0000ms, 0624ms total)
T1448 000:952 JLINK_WriteReg(PSP, 0x20000800)  returns 0x00 (0000ms, 0624ms total)
T1448 000:952 JLINK_WriteReg(CFBP, 0x00000000)  returns 0x00 (0000ms, 0624ms total)
T1448 000:952 JLINK_SetBPEx(Addr = 0x20000000, Type = 0xFFFFFFF2)  returns 0x00000003 (0000ms, 0624ms total)
T1448 000:952 JLINK_Go() (0001ms, 0625ms total)
T1448 000:953 JLINK_IsHalted() -- CPU_ReadMem(2 bytes @ 0x20000000)  returns TRUE (0005ms, 0630ms total)
T1448 000:958 JLINK_ReadReg(R15 (PC))  returns 0x20000000 (0000ms, 0625ms total)
T1448 000:958 JLINK_ClrBPEx(BPHandle = 0x00000003)  returns 0x00 (0000ms, 0625ms total)
T1448 000:958 JLINK_ReadReg(R0)  returns 0x00000000 (0000ms, 0625ms total)
T1448 000:962 JLINK_WriteMem(0x20000000, 0x0164 Bytes, ...) -- Data:  00 BE 0A E0 0D 78 2D 06 68 40 08 24 40 00 00 D3 ... -- CPU_WriteMem(356 bytes @ 0x20000000)  returns 0x164 (0005ms, 0630ms total)
T1448 000:967 JLINK_WriteReg(R0, 0x08000000)  returns 0x00 (0000ms, 0630ms total)
T1448 000:967 JLINK_WriteReg(R1, 0x007A1200)  returns 0x00 (0000ms, 0630ms total)
T1448 000:967 JLINK_WriteReg(R2, 0x00000002)  returns 0x00 (0000ms, 0630ms total)
T1448 000:967 JLINK_WriteReg(R3, 0x00000000)  returns 0x00 (0000ms, 0630ms total)
T1448 000:967 JLINK_WriteReg(R4, 0x00000000)  returns 0x00 (0000ms, 0630ms total)
T1448 000:967 JLINK_WriteReg(R5, 0x00000000)  returns 0x00 (0000ms, 0630ms total)
T1448 000:967 JLINK_WriteReg(R6, 0x00000000)  returns 0x00 (0000ms, 0630ms total)
T1448 000:967 JLINK_WriteReg(R7, 0x00000000)  returns 0x00 (0000ms, 0630ms total)
T1448 000:967 JLINK_WriteReg(R8, 0x00000000)  returns 0x00 (0000ms, 0630ms total)
T1448 000:967 JLINK_WriteReg(R9, 0x20000160)  returns 0x00 (0000ms, 0630ms total)
T1448 000:967 JLINK_WriteReg(R10, 0x00000000)  returns 0x00 (0000ms, 0630ms total)
T1448 000:967 JLINK_WriteReg(R11, 0x00000000)  returns 0x00 (0000ms, 0630ms total)
T1448 000:967 JLINK_WriteReg(R12, 0x00000000)  returns 0x00 (0000ms, 0630ms total)
T1448 000:967 JLINK_WriteReg(R13 (SP), 0x20000800)  returns 0x00 (0000ms, 0630ms total)
T1448 000:967 JLINK_WriteReg(R14, 0x20000001)  returns 0x00 (0000ms, 0630ms total)
T1448 000:967 JLINK_WriteReg(R15 (PC), 0x20000038)  returns 0x00 (0000ms, 0630ms total)
T1448 000:967 JLINK_WriteReg(XPSR, 0x01000000)  returns 0x00 (0000ms, 0630ms total)
T1448 000:967 JLINK_WriteReg(MSP, 0x20000800)  returns 0x00 (0000ms, 0630ms total)
T1448 000:967 JLINK_WriteReg(PSP, 0x20000800)  returns 0x00 (0000ms, 0630ms total)
T1448 000:967 JLINK_WriteReg(CFBP, 0x00000000)  returns 0x00 (0000ms, 0630ms total)
T1448 000:967 JLINK_SetBPEx(Addr = 0x20000000, Type = 0xFFFFFFF2) -- CPU_ReadMem(2 bytes @ 0x20000000)  returns 0x00000004 (0001ms, 0631ms total)
T1448 000:968 JLINK_Go() -- CPU_WriteMem(2 bytes @ 0x20000000) (0002ms, 0633ms total)
T1448 000:970 JLINK_IsHalted() -- CPU_ReadMem(2 bytes @ 0x20000000)  returns TRUE (0004ms, 0637ms total)
T1448 000:974 JLINK_ReadReg(R15 (PC))  returns 0x20000000 (0000ms, 0633ms total)
T1448 000:974 JLINK_ClrBPEx(BPHandle = 0x00000004)  returns 0x00 (0000ms, 0633ms total)
T1448 000:974 JLINK_ReadReg(R0)  returns 0x00000000 (0000ms, 0633ms total)
T1448 000:974 JLINK_WriteMem(0x20000164, 0x0400 Bytes, ...) -- Data:  00 04 00 20 47 01 00 08 49 0C 00 08 8F 04 00 08 ... -- CPU_WriteMem(1024 bytes @ 0x20000164)  returns 0x400 (0013ms, 0646ms total)
T1448 000:987 JLINK_WriteReg(R0, 0x08000000)  returns 0x00 (0000ms, 0646ms total)
T1448 000:987 JLINK_WriteReg(R1, 0x00000400)  returns 0x00 (0000ms, 0646ms total)
T1448 000:987 JLINK_WriteReg(R2, 0x20000164)  returns 0x00 (0000ms, 0646ms total)
T1448 000:987 JLINK_WriteReg(R3, 0x00000000)  returns 0x00 (0000ms, 0646ms total)
T1448 000:987 JLINK_WriteReg(R4, 0x00000000)  returns 0x00 (0000ms, 0646ms total)
T1448 000:987 JLINK_WriteReg(R5, 0x00000000)  returns 0x00 (0000ms, 0646ms total)
T1448 000:987 JLINK_WriteReg(R6, 0x00000000)  returns 0x00 (0000ms, 0646ms total)
T1448 000:987 JLINK_WriteReg(R7, 0x00000000)  returns 0x00 (0000ms, 0646ms total)
T1448 000:987 JLINK_WriteReg(R8, 0x00000000)  returns 0x00 (0000ms, 0646ms total)
T1448 000:987 JLINK_WriteReg(R9, 0x20000160)  returns 0x00 (0000ms, 0646ms total)
T1448 000:987 JLINK_WriteReg(R10, 0x00000000)  returns 0x00 (0000ms, 0646ms total)
T1448 000:987 JLINK_WriteReg(R11, 0x00000000)  returns 0x00 (0000ms, 0646ms total)
T1448 000:987 JLINK_WriteReg(R12, 0x00000000)  returns 0x00 (0000ms, 0646ms total)
T1448 000:987 JLINK_WriteReg(R13 (SP), 0x20000800)  returns 0x00 (0000ms, 0646ms total)
T1448 000:987 JLINK_WriteReg(R14, 0x20000001)  returns 0x00 (0000ms, 0646ms total)
T1448 000:987 JLINK_WriteReg(R15 (PC), 0x200000F4)  returns 0x00 (0000ms, 0646ms total)
T1448 000:987 JLINK_WriteReg(XPSR, 0x01000000)  returns 0x00 (0000ms, 0646ms total)
T1448 000:987 JLINK_WriteReg(MSP, 0x20000800)  returns 0x00 (0000ms, 0646ms total)
T1448 000:987 JLINK_WriteReg(PSP, 0x20000800)  returns 0x00 (0000ms, 0646ms total)
T1448 000:987 JLINK_WriteReg(CFBP, 0x00000000)  returns 0x00 (0000ms, 0646ms total)
T1448 000:987 JLINK_SetBPEx(Addr = 0x20000000, Type = 0xFFFFFFF2)  returns 0x00000005 (0000ms, 0646ms total)
T1448 000:987 JLINK_Go() (0002ms, 0648ms total)
T1448 000:989 JLINK_IsHalted()  returns FALSE (0001ms, 0649ms total)
T1448 000:996 JLINK_IsHalted()  returns FALSE (0000ms, 0648ms total)
T1448 000:998 JLINK_IsHalted()  returns FALSE (0000ms, 0648ms total)
T1448 001:000 JLINK_IsHalted()  returns FALSE (0000ms, 0648ms total)
T1448 001:002 JLINK_IsHalted()  returns FALSE (0000ms, 0648ms total)
T1448 001:004 JLINK_IsHalted()  returns FALSE (0000ms, 0648ms total)
T1448 001:007 JLINK_IsHalted()  returns FALSE (0000ms, 0648ms total)
T1448 001:009 JLINK_IsHalted()  returns FALSE (0000ms, 0648ms total)
T1448 001:011 JLINK_IsHalted()  returns FALSE (0000ms, 0648ms total)
T1448 001:014 JLINK_IsHalted()  returns FALSE (0000ms, 0648ms total)
T1448 001:016 JLINK_IsHalted()  returns FALSE (0000ms, 0648ms total)
T1448 001:018 JLINK_IsHalted()  returns FALSE (0000ms, 0648ms total)
T1448 001:020 JLINK_IsHalted() -- CPU_ReadMem(2 bytes @ 0x20000000)  returns TRUE (0003ms, 0651ms total)
T1448 001:023 JLINK_ReadReg(R15 (PC))  returns 0x20000000 (0000ms, 0648ms total)
T1448 001:023 JLINK_ClrBPEx(BPHandle = 0x00000005)  returns 0x00 (0000ms, 0648ms total)
T1448 001:023 JLINK_ReadReg(R0)  returns 0x00000000 (0000ms, 0648ms total)
T1448 001:024 JLINK_WriteMem(0x20000164, 0x0400 Bytes, ...) -- Data:  00 FC C2 F8 10 C0 40 1C 08 28 D1 D3 14 60 B1 F8 ... -- CPU_WriteMem(1024 bytes @ 0x20000164)  returns 0x400 (0012ms, 0660ms total)
T1448 001:036 JLINK_WriteReg(R0, 0x08000400)  returns 0x00 (0000ms, 0660ms total)
T1448 001:036 JLINK_WriteReg(R1, 0x00000400)  returns 0x00 (0000ms, 0660ms total)
T1448 001:036 JLINK_WriteReg(R2, 0x20000164)  returns 0x00 (0000ms, 0660ms total)
T1448 001:036 JLINK_WriteReg(R3, 0x00000000)  returns 0x00 (0000ms, 0660ms total)
T1448 001:036 JLINK_WriteReg(R4, 0x00000000)  returns 0x00 (0000ms, 0660ms total)
T1448 001:036 JLINK_WriteReg(R5, 0x00000000)  returns 0x00 (0000ms, 0660ms total)
T1448 001:036 JLINK_WriteReg(R6, 0x00000000)  returns 0x00 (0000ms, 0660ms total)
T1448 001:036 JLINK_WriteReg(R7, 0x00000000)  returns 0x00 (0000ms, 0660ms total)
T1448 001:036 JLINK_WriteReg(R8, 0x00000000)  returns 0x00 (0000ms, 0660ms total)
T1448 001:036 JLINK_WriteReg(R9, 0x20000160)  returns 0x00 (0000ms, 0660ms total)
T1448 001:036 JLINK_WriteReg(R10, 0x00000000)  returns 0x00 (0000ms, 0660ms total)
T1448 001:036 JLINK_WriteReg(R11, 0x00000000)  returns 0x00 (0000ms, 0660ms total)
T1448 001:036 JLINK_WriteReg(R12, 0x00000000)  returns 0x00 (0000ms, 0660ms total)
T1448 001:036 JLINK_WriteReg(R13 (SP), 0x20000800)  returns 0x00 (0000ms, 0660ms total)
T1448 001:036 JLINK_WriteReg(R14, 0x20000001)  returns 0x00 (0000ms, 0660ms total)
T1448 001:036 JLINK_WriteReg(R15 (PC), 0x200000F4)  returns 0x00 (0000ms, 0660ms total)
T1448 001:036 JLINK_WriteReg(XPSR, 0x01000000)  returns 0x00 (0000ms, 0660ms total)
T1448 001:036 JLINK_WriteReg(MSP, 0x20000800)  returns 0x00 (0000ms, 0660ms total)
T1448 001:036 JLINK_WriteReg(PSP, 0x20000800)  returns 0x00 (0000ms, 0660ms total)
T1448 001:036 JLINK_WriteReg(CFBP, 0x00000000)  returns 0x00 (0000ms, 0660ms total)
T1448 001:036 JLINK_SetBPEx(Addr = 0x20000000, Type = 0xFFFFFFF2)  returns 0x00000006 (0001ms, 0661ms total)
T1448 001:037 JLINK_Go() (0002ms, 0663ms total)
T1448 001:039 JLINK_IsHalted()  returns FALSE (0000ms, 0663ms total)
T1448 001:045 JLINK_IsHalted()  returns FALSE (0000ms, 0663ms total)
T1448 001:047 JLINK_IsHalted()  returns FALSE (0000ms, 0663ms total)
T1448 001:049 JLINK_IsHalted()  returns FALSE (0000ms, 0663ms total)
T1448 001:052 JLINK_IsHalted()  returns FALSE (0000ms, 0663ms total)
T1448 001:054 JLINK_IsHalted()  returns FALSE (0000ms, 0663ms total)
T1448 001:056 JLINK_IsHalted()  returns FALSE (0000ms, 0663ms total)
T1448 001:058 JLINK_IsHalted()  returns FALSE (0000ms, 0663ms total)
T1448 001:061 JLINK_IsHalted()  returns FALSE (0000ms, 0663ms total)
T1448 001:063 JLINK_IsHalted()  returns FALSE (0000ms, 0663ms total)
T1448 001:065 JLINK_IsHalted()  returns FALSE (0000ms, 0663ms total)
T1448 001:067 JLINK_IsHalted()  returns FALSE (0000ms, 0663ms total)
T1448 001:069 JLINK_IsHalted()  returns FALSE (0000ms, 0663ms total)
T1448 001:071 JLINK_IsHalted() -- CPU_ReadMem(2 bytes @ 0x20000000)  returns TRUE (0004ms, 0667ms total)
T1448 001:075 JLINK_ReadReg(R15 (PC))  returns 0x20000000 (0000ms, 0663ms total)
T1448 001:075 JLINK_ClrBPEx(BPHandle = 0x00000006)  returns 0x00 (0000ms, 0663ms total)
T1448 001:075 JLINK_ReadReg(R0)  returns 0x00000000 (0000ms, 0663ms total)
T1448 001:075 JLINK_WriteMem(0x20000164, 0x0400 Bytes, ...) -- Data:  2D FF F6 20 00 F0 1A FF 03 20 00 F0 27 FF 00 20 ... -- CPU_WriteMem(1024 bytes @ 0x20000164)  returns 0x400 (0012ms, 0675ms total)
T1448 001:087 JLINK_WriteReg(R0, 0x08000800)  returns 0x00 (0000ms, 0675ms total)
T1448 001:087 JLINK_WriteReg(R1, 0x00000400)  returns 0x00 (0000ms, 0675ms total)
T1448 001:087 JLINK_WriteReg(R2, 0x20000164)  returns 0x00 (0000ms, 0675ms total)
T1448 001:087 JLINK_WriteReg(R3, 0x00000000)  returns 0x00 (0000ms, 0675ms total)
T1448 001:087 JLINK_WriteReg(R4, 0x00000000)  returns 0x00 (0000ms, 0675ms total)
T1448 001:087 JLINK_WriteReg(R5, 0x00000000)  returns 0x00 (0000ms, 0675ms total)
T1448 001:087 JLINK_WriteReg(R6, 0x00000000)  returns 0x00 (0000ms, 0675ms total)
T1448 001:087 JLINK_WriteReg(R7, 0x00000000)  returns 0x00 (0000ms, 0675ms total)
T1448 001:087 JLINK_WriteReg(R8, 0x00000000)  returns 0x00 (0000ms, 0675ms total)
T1448 001:087 JLINK_WriteReg(R9, 0x20000160)  returns 0x00 (0001ms, 0676ms total)
T1448 001:088 JLINK_WriteReg(R10, 0x00000000)  returns 0x00 (0000ms, 0676ms total)
T1448 001:088 JLINK_WriteReg(R11, 0x00000000)  returns 0x00 (0000ms, 0676ms total)
T1448 001:088 JLINK_WriteReg(R12, 0x00000000)  returns 0x00 (0000ms, 0676ms total)
T1448 001:088 JLINK_WriteReg(R13 (SP), 0x20000800)  returns 0x00 (0000ms, 0676ms total)
T1448 001:088 JLINK_WriteReg(R14, 0x20000001)  returns 0x00 (0000ms, 0676ms total)
T1448 001:088 JLINK_WriteReg(R15 (PC), 0x200000F4)  returns 0x00 (0000ms, 0676ms total)
T1448 001:088 JLINK_WriteReg(XPSR, 0x01000000)  returns 0x00 (0000ms, 0676ms total)
T1448 001:088 JLINK_WriteReg(MSP, 0x20000800)  returns 0x00 (0000ms, 0676ms total)
T1448 001:088 JLINK_WriteReg(PSP, 0x20000800)  returns 0x00 (0000ms, 0676ms total)
T1448 001:088 JLINK_WriteReg(CFBP, 0x00000000)  returns 0x00 (0000ms, 0676ms total)
T1448 001:088 JLINK_SetBPEx(Addr = 0x20000000, Type = 0xFFFFFFF2)  returns 0x00000007 (0000ms, 0676ms total)
T1448 001:088 JLINK_Go() (0002ms, 0678ms total)
T1448 001:090 JLINK_IsHalted()  returns FALSE (0000ms, 0678ms total)
T1448 001:098 JLINK_IsHalted()  returns FALSE (0000ms, 0678ms total)
T1448 001:100 JLINK_IsHalted()  returns FALSE (0000ms, 0678ms total)
T1448 001:102 JLINK_IsHalted()  returns FALSE (0000ms, 0678ms total)
T1448 001:104 JLINK_IsHalted()  returns FALSE (0000ms, 0678ms total)
T1448 001:106 JLINK_IsHalted()  returns FALSE (0000ms, 0678ms total)
T1448 001:109 JLINK_IsHalted()  returns FALSE (0000ms, 0678ms total)
T1448 001:111 JLINK_IsHalted()  returns FALSE (0000ms, 0678ms total)
T1448 001:113 JLINK_IsHalted()  returns FALSE (0000ms, 0678ms total)
T1448 001:115 JLINK_IsHalted()  returns FALSE (0000ms, 0678ms total)
T1448 001:117 JLINK_IsHalted()  returns FALSE (0000ms, 0678ms total)
T1448 001:119 JLINK_IsHalted()  returns FALSE (0000ms, 0678ms total)
T1448 001:121 JLINK_IsHalted() -- CPU_ReadMem(2 bytes @ 0x20000000)  returns TRUE (0003ms, 0681ms total)
T1448 001:124 JLINK_ReadReg(R15 (PC))  returns 0x20000000 (0000ms, 0678ms total)
T1448 001:124 JLINK_ClrBPEx(BPHandle = 0x00000007)  returns 0x00 (0000ms, 0678ms total)
T1448 001:124 JLINK_ReadReg(R0)  returns 0x00000000 (0000ms, 0678ms total)
T1448 001:125 JLINK_WriteMem(0x20000164, 0x0400 Bytes, ...) -- Data:  44 FC 4F F6 E0 71 0D 48 00 F0 74 FB 64 1C B4 F5 ... -- CPU_WriteMem(1024 bytes @ 0x20000164)  returns 0x400 (0012ms, 0690ms total)
T1448 001:137 JLINK_WriteReg(R0, 0x08000C00)  returns 0x00 (0000ms, 0690ms total)
T1448 001:137 JLINK_WriteReg(R1, 0x00000400)  returns 0x00 (0000ms, 0690ms total)
T1448 001:137 JLINK_WriteReg(R2, 0x20000164)  returns 0x00 (0000ms, 0690ms total)
T1448 001:137 JLINK_WriteReg(R3, 0x00000000)  returns 0x00 (0000ms, 0690ms total)
T1448 001:137 JLINK_WriteReg(R4, 0x00000000)  returns 0x00 (0000ms, 0690ms total)
T1448 001:137 JLINK_WriteReg(R5, 0x00000000)  returns 0x00 (0000ms, 0690ms total)
T1448 001:137 JLINK_WriteReg(R6, 0x00000000)  returns 0x00 (0000ms, 0690ms total)
T1448 001:137 JLINK_WriteReg(R7, 0x00000000)  returns 0x00 (0000ms, 0690ms total)
T1448 001:137 JLINK_WriteReg(R8, 0x00000000)  returns 0x00 (0000ms, 0690ms total)
T1448 001:137 JLINK_WriteReg(R9, 0x20000160)  returns 0x00 (0000ms, 0690ms total)
T1448 001:137 JLINK_WriteReg(R10, 0x00000000)  returns 0x00 (0000ms, 0690ms total)
T1448 001:137 JLINK_WriteReg(R11, 0x00000000)  returns 0x00 (0000ms, 0690ms total)
T1448 001:137 JLINK_WriteReg(R12, 0x00000000)  returns 0x00 (0000ms, 0690ms total)
T1448 001:137 JLINK_WriteReg(R13 (SP), 0x20000800)  returns 0x00 (0000ms, 0690ms total)
T1448 001:137 JLINK_WriteReg(R14, 0x20000001)  returns 0x00 (0000ms, 0690ms total)
T1448 001:137 JLINK_WriteReg(R15 (PC), 0x200000F4)  returns 0x00 (0000ms, 0690ms total)
T1448 001:137 JLINK_WriteReg(XPSR, 0x01000000)  returns 0x00 (0000ms, 0690ms total)
T1448 001:137 JLINK_WriteReg(MSP, 0x20000800)  returns 0x00 (0000ms, 0690ms total)
T1448 001:137 JLINK_WriteReg(PSP, 0x20000800)  returns 0x00 (0000ms, 0690ms total)
T1448 001:137 JLINK_WriteReg(CFBP, 0x00000000)  returns 0x00 (0000ms, 0690ms total)
T1448 001:137 JLINK_SetBPEx(Addr = 0x20000000, Type = 0xFFFFFFF2)  returns 0x00000008 (0000ms, 0690ms total)
T1448 001:137 JLINK_Go() (0002ms, 0692ms total)
T1448 001:139 JLINK_IsHalted()  returns FALSE (0001ms, 0693ms total)
T1448 001:142 JLINK_IsHalted()  returns FALSE (0000ms, 0692ms total)
T1448 001:144 JLINK_IsHalted()  returns FALSE (0000ms, 0692ms total)
T1448 001:146 JLINK_IsHalted()  returns FALSE (0000ms, 0692ms total)
T1448 001:148 JLINK_IsHalted()  returns FALSE (0000ms, 0692ms total)
T1448 001:150 JLINK_IsHalted()  returns FALSE (0000ms, 0692ms total)
T1448 001:152 JLINK_IsHalted()  returns FALSE (0000ms, 0692ms total)
T1448 001:154 JLINK_IsHalted()  returns FALSE (0000ms, 0692ms total)
T1448 001:156 JLINK_IsHalted()  returns FALSE (0000ms, 0692ms total)
T1448 001:158 JLINK_IsHalted()  returns FALSE (0000ms, 0692ms total)
T1448 001:160 JLINK_IsHalted()  returns FALSE (0000ms, 0692ms total)
T1448 001:162 JLINK_IsHalted()  returns FALSE (0000ms, 0692ms total)
T1448 001:164 JLINK_IsHalted()  returns FALSE (0000ms, 0692ms total)
T1448 001:166 JLINK_IsHalted()  returns FALSE (0000ms, 0692ms total)
T1448 001:168 JLINK_IsHalted()  returns FALSE (0000ms, 0692ms total)
T1448 001:170 JLINK_IsHalted() -- CPU_ReadMem(2 bytes @ 0x20000000)  returns TRUE (0004ms, 0696ms total)
T1448 001:174 JLINK_ReadReg(R15 (PC))  returns 0x20000000 (0000ms, 0692ms total)
T1448 001:174 JLINK_ClrBPEx(BPHandle = 0x00000008)  returns 0x00 (0000ms, 0692ms total)
T1448 001:174 JLINK_ReadReg(R0)  returns 0x00000000 (0000ms, 0692ms total)
T1448 001:174 JLINK_WriteMem(0x20000164, 0x0400 Bytes, ...) -- Data:  7C 49 08 60 4D E0 4F F4 80 40 FF F7 91 FF 00 28 ... -- CPU_WriteMem(1024 bytes @ 0x20000164)  returns 0x400 (0012ms, 0704ms total)
T1448 001:186 JLINK_WriteReg(R0, 0x08001000)  returns 0x00 (0000ms, 0704ms total)
T1448 001:186 JLINK_WriteReg(R1, 0x00000400)  returns 0x00 (0000ms, 0704ms total)
T1448 001:186 JLINK_WriteReg(R2, 0x20000164)  returns 0x00 (0000ms, 0704ms total)
T1448 001:186 JLINK_WriteReg(R3, 0x00000000)  returns 0x00 (0000ms, 0704ms total)
T1448 001:186 JLINK_WriteReg(R4, 0x00000000)  returns 0x00 (0000ms, 0704ms total)
T1448 001:186 JLINK_WriteReg(R5, 0x00000000)  returns 0x00 (0000ms, 0704ms total)
T1448 001:186 JLINK_WriteReg(R6, 0x00000000)  returns 0x00 (0000ms, 0704ms total)
T1448 001:186 JLINK_WriteReg(R7, 0x00000000)  returns 0x00 (0000ms, 0704ms total)
T1448 001:186 JLINK_WriteReg(R8, 0x00000000)  returns 0x00 (0000ms, 0704ms total)
T1448 001:186 JLINK_WriteReg(R9, 0x20000160)  returns 0x00 (0000ms, 0704ms total)
T1448 001:186 JLINK_WriteReg(R10, 0x00000000)  returns 0x00 (0000ms, 0704ms total)
T1448 001:186 JLINK_WriteReg(R11, 0x00000000)  returns 0x00 (0000ms, 0704ms total)
T1448 001:186 JLINK_WriteReg(R12, 0x00000000)  returns 0x00 (0000ms, 0704ms total)
T1448 001:186 JLINK_WriteReg(R13 (SP), 0x20000800)  returns 0x00 (0000ms, 0704ms total)
T1448 001:186 JLINK_WriteReg(R14, 0x20000001)  returns 0x00 (0000ms, 0704ms total)
T1448 001:186 JLINK_WriteReg(R15 (PC), 0x200000F4)  returns 0x00 (0000ms, 0704ms total)
T1448 001:186 JLINK_WriteReg(XPSR, 0x01000000)  returns 0x00 (0000ms, 0704ms total)
T1448 001:186 JLINK_WriteReg(MSP, 0x20000800)  returns 0x00 (0000ms, 0704ms total)
T1448 001:186 JLINK_WriteReg(PSP, 0x20000800)  returns 0x00 (0001ms, 0705ms total)
T1448 001:187 JLINK_WriteReg(CFBP, 0x00000000)  returns 0x00 (0000ms, 0705ms total)
T1448 001:187 JLINK_SetBPEx(Addr = 0x20000000, Type = 0xFFFFFFF2)  returns 0x00000009 (0000ms, 0705ms total)
T1448 001:187 JLINK_Go() (0001ms, 0706ms total)
T1448 001:188 JLINK_IsHalted()  returns FALSE (0001ms, 0707ms total)
T1448 001:192 JLINK_IsHalted()  returns FALSE (0000ms, 0706ms total)
T1448 001:194 JLINK_IsHalted()  returns FALSE (0000ms, 0706ms total)
T1448 001:196 JLINK_IsHalted()  returns FALSE (0000ms, 0706ms total)
T1448 001:198 JLINK_IsHalted()  returns FALSE (0000ms, 0706ms total)
T1448 001:203 JLINK_IsHalted()  returns FALSE (0000ms, 0706ms total)
T1448 001:205 JLINK_IsHalted()  returns FALSE (0000ms, 0706ms total)
T1448 001:207 JLINK_IsHalted()  returns FALSE (0000ms, 0706ms total)
T1448 001:209 JLINK_IsHalted()  returns FALSE (0000ms, 0706ms total)
T1448 001:211 JLINK_IsHalted()  returns FALSE (0000ms, 0706ms total)
T1448 001:213 JLINK_IsHalted()  returns FALSE (0000ms, 0706ms total)
T1448 001:215 JLINK_IsHalted()  returns FALSE (0000ms, 0706ms total)
T1448 001:217 JLINK_IsHalted()  returns FALSE (0000ms, 0706ms total)
T1448 001:219 JLINK_IsHalted()  returns FALSE (0000ms, 0706ms total)
T1448 001:221 JLINK_IsHalted() -- CPU_ReadMem(2 bytes @ 0x20000000)  returns TRUE (0003ms, 0709ms total)
T1448 001:224 JLINK_ReadReg(R15 (PC))  returns 0x20000000 (0000ms, 0706ms total)
T1448 001:224 JLINK_ClrBPEx(BPHandle = 0x00000009)  returns 0x00 (0000ms, 0706ms total)
T1448 001:224 JLINK_ReadReg(R0)  returns 0x00000000 (0000ms, 0706ms total)
T1448 001:225 JLINK_WriteMem(0x20000164, 0x0400 Bytes, ...) -- Data:  02 00 48 60 00 BF 05 48 40 68 00 F0 0C 00 08 28 ... -- CPU_WriteMem(1024 bytes @ 0x20000164)  returns 0x400 (0012ms, 0718ms total)
T1448 001:237 JLINK_WriteReg(R0, 0x08001400)  returns 0x00 (0000ms, 0718ms total)
T1448 001:237 JLINK_WriteReg(R1, 0x00000400)  returns 0x00 (0000ms, 0718ms total)
T1448 001:237 JLINK_WriteReg(R2, 0x20000164)  returns 0x00 (0000ms, 0718ms total)
T1448 001:237 JLINK_WriteReg(R3, 0x00000000)  returns 0x00 (0000ms, 0718ms total)
T1448 001:237 JLINK_WriteReg(R4, 0x00000000)  returns 0x00 (0000ms, 0718ms total)
T1448 001:237 JLINK_WriteReg(R5, 0x00000000)  returns 0x00 (0000ms, 0718ms total)
T1448 001:237 JLINK_WriteReg(R6, 0x00000000)  returns 0x00 (0000ms, 0718ms total)
T1448 001:237 JLINK_WriteReg(R7, 0x00000000)  returns 0x00 (0000ms, 0718ms total)
T1448 001:237 JLINK_WriteReg(R8, 0x00000000)  returns 0x00 (0000ms, 0718ms total)
T1448 001:237 JLINK_WriteReg(R9, 0x20000160)  returns 0x00 (0000ms, 0718ms total)
T1448 001:237 JLINK_WriteReg(R10, 0x00000000)  returns 0x00 (0000ms, 0718ms total)
T1448 001:237 JLINK_WriteReg(R11, 0x00000000)  returns 0x00 (0000ms, 0718ms total)
T1448 001:237 JLINK_WriteReg(R12, 0x00000000)  returns 0x00 (0000ms, 0718ms total)
T1448 001:237 JLINK_WriteReg(R13 (SP), 0x20000800)  returns 0x00 (0000ms, 0718ms total)
T1448 001:237 JLINK_WriteReg(R14, 0x20000001)  returns 0x00 (0000ms, 0718ms total)
T1448 001:237 JLINK_WriteReg(R15 (PC), 0x200000F4)  returns 0x00 (0000ms, 0718ms total)
T1448 001:237 JLINK_WriteReg(XPSR, 0x01000000)  returns 0x00 (0000ms, 0718ms total)
T1448 001:237 JLINK_WriteReg(MSP, 0x20000800)  returns 0x00 (0000ms, 0718ms total)
T1448 001:237 JLINK_WriteReg(PSP, 0x20000800)  returns 0x00 (0000ms, 0718ms total)
T1448 001:237 JLINK_WriteReg(CFBP, 0x00000000)  returns 0x00 (0000ms, 0718ms total)
T1448 001:237 JLINK_SetBPEx(Addr = 0x20000000, Type = 0xFFFFFFF2)  returns 0x0000000A (0000ms, 0718ms total)
T1448 001:237 JLINK_Go() (0002ms, 0720ms total)
T1448 001:239 JLINK_IsHalted()  returns FALSE (0001ms, 0721ms total)
T1448 001:243 JLINK_IsHalted()  returns FALSE (0000ms, 0720ms total)
T1448 001:245 JLINK_IsHalted()  returns FALSE (0000ms, 0720ms total)
T1448 001:247 JLINK_IsHalted()  returns FALSE (0000ms, 0720ms total)
T1448 001:249 JLINK_IsHalted()  returns FALSE (0000ms, 0720ms total)
T1448 001:251 JLINK_IsHalted()  returns FALSE (0000ms, 0720ms total)
T1448 001:253 JLINK_IsHalted()  returns FALSE (0000ms, 0720ms total)
T1448 001:255 JLINK_IsHalted()  returns FALSE (0000ms, 0720ms total)
T1448 001:257 JLINK_IsHalted()  returns FALSE (0000ms, 0720ms total)
T1448 001:259 JLINK_IsHalted()  returns FALSE (0000ms, 0720ms total)
T1448 001:261 JLINK_IsHalted()  returns FALSE (0000ms, 0720ms total)
T1448 001:264 JLINK_IsHalted()  returns FALSE (0000ms, 0720ms total)
T1448 001:266 JLINK_IsHalted()  returns FALSE (0000ms, 0720ms total)
T1448 001:268 JLINK_IsHalted()  returns FALSE (0000ms, 0720ms total)
T1448 001:270 JLINK_IsHalted() -- CPU_ReadMem(2 bytes @ 0x20000000)  returns TRUE (0004ms, 0724ms total)
T1448 001:274 JLINK_ReadReg(R15 (PC))  returns 0x20000000 (0000ms, 0720ms total)
T1448 001:274 JLINK_ClrBPEx(BPHandle = 0x0000000A)  returns 0x00 (0000ms, 0720ms total)
T1448 001:274 JLINK_ReadReg(R0)  returns 0x00000000 (0000ms, 0720ms total)
T1448 001:275 JLINK_WriteMem(0x20000164, 0x0400 Bytes, ...) -- Data:  60 1C 84 B2 B4 F5 A0 7F AB DB 68 1C 85 B2 B5 F5 ... -- CPU_WriteMem(1024 bytes @ 0x20000164)  returns 0x400 (0013ms, 0733ms total)
T1448 001:288 JLINK_WriteReg(R0, 0x08001800)  returns 0x00 (0000ms, 0733ms total)
T1448 001:288 JLINK_WriteReg(R1, 0x00000400)  returns 0x00 (0000ms, 0733ms total)
T1448 001:288 JLINK_WriteReg(R2, 0x20000164)  returns 0x00 (0000ms, 0733ms total)
T1448 001:288 JLINK_WriteReg(R3, 0x00000000)  returns 0x00 (0000ms, 0733ms total)
T1448 001:288 JLINK_WriteReg(R4, 0x00000000)  returns 0x00 (0000ms, 0733ms total)
T1448 001:288 JLINK_WriteReg(R5, 0x00000000)  returns 0x00 (0000ms, 0733ms total)
T1448 001:288 JLINK_WriteReg(R6, 0x00000000)  returns 0x00 (0000ms, 0733ms total)
T1448 001:288 JLINK_WriteReg(R7, 0x00000000)  returns 0x00 (0000ms, 0733ms total)
T1448 001:288 JLINK_WriteReg(R8, 0x00000000)  returns 0x00 (0000ms, 0733ms total)
T1448 001:288 JLINK_WriteReg(R9, 0x20000160)  returns 0x00 (0000ms, 0733ms total)
T1448 001:288 JLINK_WriteReg(R10, 0x00000000)  returns 0x00 (0000ms, 0733ms total)
T1448 001:288 JLINK_WriteReg(R11, 0x00000000)  returns 0x00 (0000ms, 0733ms total)
T1448 001:288 JLINK_WriteReg(R12, 0x00000000)  returns 0x00 (0000ms, 0733ms total)
T1448 001:288 JLINK_WriteReg(R13 (SP), 0x20000800)  returns 0x00 (0000ms, 0733ms total)
T1448 001:288 JLINK_WriteReg(R14, 0x20000001)  returns 0x00 (0000ms, 0733ms total)
T1448 001:288 JLINK_WriteReg(R15 (PC), 0x200000F4)  returns 0x00 (0000ms, 0733ms total)
T1448 001:288 JLINK_WriteReg(XPSR, 0x01000000)  returns 0x00 (0000ms, 0733ms total)
T1448 001:288 JLINK_WriteReg(MSP, 0x20000800)  returns 0x00 (0000ms, 0733ms total)
T1448 001:288 JLINK_WriteReg(PSP, 0x20000800)  returns 0x00 (0000ms, 0733ms total)
T1448 001:288 JLINK_WriteReg(CFBP, 0x00000000)  returns 0x00 (0000ms, 0733ms total)
T1448 001:288 JLINK_SetBPEx(Addr = 0x20000000, Type = 0xFFFFFFF2)  returns 0x0000000B (0000ms, 0733ms total)
T1448 001:288 JLINK_Go() (0003ms, 0736ms total)
T1448 001:291 JLINK_IsHalted()  returns FALSE (0001ms, 0737ms total)
T1448 001:295 JLINK_IsHalted()  returns FALSE (0000ms, 0736ms total)
T1448 001:297 JLINK_IsHalted()  returns FALSE (0000ms, 0736ms total)
T1448 001:308 JLINK_IsHalted()  returns FALSE (0000ms, 0736ms total)
T1448 001:310 JLINK_IsHalted()  returns FALSE (0000ms, 0736ms total)
T1448 001:316 JLINK_IsHalted()  returns FALSE (0000ms, 0736ms total)
T1448 001:320 JLINK_IsHalted()  returns FALSE (0000ms, 0736ms total)
T1448 001:322 JLINK_IsHalted() -- CPU_ReadMem(2 bytes @ 0x20000000)  returns TRUE (0004ms, 0740ms total)
T1448 001:326 JLINK_ReadReg(R15 (PC))  returns 0x20000000 (0000ms, 0736ms total)
T1448 001:326 JLINK_ClrBPEx(BPHandle = 0x0000000B)  returns 0x00 (0000ms, 0736ms total)
T1448 001:326 JLINK_ReadReg(R0)  returns 0x00000000 (0000ms, 0736ms total)
T1448 001:327 JLINK_WriteMem(0x20000164, 0x0400 Bytes, ...) -- Data:  96 BE 96 BE 96 BE 96 BE 96 BE 9E BE 9E BE 9E BE ... -- CPU_WriteMem(1024 bytes @ 0x20000164)  returns 0x400 (0013ms, 0749ms total)
T1448 001:340 JLINK_WriteReg(R0, 0x08001C00)  returns 0x00 (0000ms, 0749ms total)
T1448 001:340 JLINK_WriteReg(R1, 0x00000400)  returns 0x00 (0000ms, 0749ms total)
T1448 001:340 JLINK_WriteReg(R2, 0x20000164)  returns 0x00 (0000ms, 0749ms total)
T1448 001:340 JLINK_WriteReg(R3, 0x00000000)  returns 0x00 (0000ms, 0749ms total)
T1448 001:340 JLINK_WriteReg(R4, 0x00000000)  returns 0x00 (0000ms, 0749ms total)
T1448 001:340 JLINK_WriteReg(R5, 0x00000000)  returns 0x00 (0000ms, 0749ms total)
T1448 001:340 JLINK_WriteReg(R6, 0x00000000)  returns 0x00 (0000ms, 0749ms total)
T1448 001:340 JLINK_WriteReg(R7, 0x00000000)  returns 0x00 (0000ms, 0749ms total)
T1448 001:340 JLINK_WriteReg(R8, 0x00000000)  returns 0x00 (0000ms, 0749ms total)
T1448 001:340 JLINK_WriteReg(R9, 0x20000160)  returns 0x00 (0000ms, 0749ms total)
T1448 001:340 JLINK_WriteReg(R10, 0x00000000)  returns 0x00 (0000ms, 0749ms total)
T1448 001:340 JLINK_WriteReg(R11, 0x00000000)  returns 0x00 (0000ms, 0749ms total)
T1448 001:340 JLINK_WriteReg(R12, 0x00000000)  returns 0x00 (0000ms, 0749ms total)
T1448 001:340 JLINK_WriteReg(R13 (SP), 0x20000800)  returns 0x00 (0000ms, 0749ms total)
T1448 001:340 JLINK_WriteReg(R14, 0x20000001)  returns 0x00 (0000ms, 0749ms total)
T1448 001:340 JLINK_WriteReg(R15 (PC), 0x200000F4)  returns 0x00 (0000ms, 0749ms total)
T1448 001:340 JLINK_WriteReg(XPSR, 0x01000000)  returns 0x00 (0000ms, 0749ms total)
T1448 001:340 JLINK_WriteReg(MSP, 0x20000800)  returns 0x00 (0000ms, 0749ms total)
T1448 001:340 JLINK_WriteReg(PSP, 0x20000800)  returns 0x00 (0000ms, 0749ms total)
T1448 001:340 JLINK_WriteReg(CFBP, 0x00000000)  returns 0x00 (0000ms, 0749ms total)
T1448 001:340 JLINK_SetBPEx(Addr = 0x20000000, Type = 0xFFFFFFF2)  returns 0x0000000C (0000ms, 0749ms total)
T1448 001:340 JLINK_Go() (0003ms, 0752ms total)
T1448 001:343 JLINK_IsHalted()  returns FALSE (0000ms, 0752ms total)
T1448 001:354 JLINK_IsHalted()  returns FALSE (0000ms, 0752ms total)
T1448 001:356 JLINK_IsHalted()  returns FALSE (0000ms, 0752ms total)
T1448 001:358 JLINK_IsHalted()  returns FALSE (0000ms, 0752ms total)
T1448 001:360 JLINK_IsHalted()  returns FALSE (0000ms, 0752ms total)
T1448 001:362 JLINK_IsHalted()  returns FALSE (0000ms, 0752ms total)
T1448 001:364 JLINK_IsHalted()  returns FALSE (0000ms, 0752ms total)
T1448 001:366 JLINK_IsHalted()  returns FALSE (0000ms, 0752ms total)
T1448 001:368 JLINK_IsHalted()  returns FALSE (0000ms, 0752ms total)
T1448 001:370 JLINK_IsHalted()  returns FALSE (0000ms, 0752ms total)
T1448 001:372 JLINK_IsHalted()  returns FALSE (0000ms, 0752ms total)
T1448 001:374 JLINK_IsHalted() -- CPU_ReadMem(2 bytes @ 0x20000000)  returns TRUE (0004ms, 0756ms total)
T1448 001:378 JLINK_ReadReg(R15 (PC))  returns 0x20000000 (0000ms, 0752ms total)
T1448 001:378 JLINK_ClrBPEx(BPHandle = 0x0000000C)  returns 0x00 (0000ms, 0752ms total)
T1448 001:378 JLINK_ReadReg(R0)  returns 0x00000000 (0000ms, 0752ms total)
T1448 001:379 JLINK_WriteMem(0x20000164, 0x0400 Bytes, ...) -- Data:  A6 FE A6 FE A6 FF A6 FF A6 FF A6 FE A6 FE A6 FE ... -- CPU_WriteMem(1024 bytes @ 0x20000164)  returns 0x400 (0012ms, 0764ms total)
T1448 001:391 JLINK_WriteReg(R0, 0x08002000)  returns 0x00 (0000ms, 0764ms total)
T1448 001:391 JLINK_WriteReg(R1, 0x00000400)  returns 0x00 (0000ms, 0764ms total)
T1448 001:391 JLINK_WriteReg(R2, 0x20000164)  returns 0x00 (0000ms, 0764ms total)
T1448 001:391 JLINK_WriteReg(R3, 0x00000000)  returns 0x00 (0000ms, 0764ms total)
T1448 001:391 JLINK_WriteReg(R4, 0x00000000)  returns 0x00 (0000ms, 0764ms total)
T1448 001:391 JLINK_WriteReg(R5, 0x00000000)  returns 0x00 (0000ms, 0764ms total)
T1448 001:391 JLINK_WriteReg(R6, 0x00000000)  returns 0x00 (0000ms, 0764ms total)
T1448 001:391 JLINK_WriteReg(R7, 0x00000000)  returns 0x00 (0000ms, 0764ms total)
T1448 001:391 JLINK_WriteReg(R8, 0x00000000)  returns 0x00 (0000ms, 0764ms total)
T1448 001:391 JLINK_WriteReg(R9, 0x20000160)  returns 0x00 (0000ms, 0764ms total)
T1448 001:391 JLINK_WriteReg(R10, 0x00000000)  returns 0x00 (0000ms, 0764ms total)
T1448 001:391 JLINK_WriteReg(R11, 0x00000000)  returns 0x00 (0000ms, 0764ms total)
T1448 001:391 JLINK_WriteReg(R12, 0x00000000)  returns 0x00 (0001ms, 0765ms total)
T1448 001:392 JLINK_WriteReg(R13 (SP), 0x20000800)  returns 0x00 (0000ms, 0765ms total)
T1448 001:392 JLINK_WriteReg(R14, 0x20000001)  returns 0x00 (0000ms, 0765ms total)
T1448 001:392 JLINK_WriteReg(R15 (PC), 0x200000F4)  returns 0x00 (0000ms, 0765ms total)
T1448 001:392 JLINK_WriteReg(XPSR, 0x01000000)  returns 0x00 (0000ms, 0765ms total)
T1448 001:392 JLINK_WriteReg(MSP, 0x20000800)  returns 0x00 (0000ms, 0765ms total)
T1448 001:392 JLINK_WriteReg(PSP, 0x20000800)  returns 0x00 (0000ms, 0765ms total)
T1448 001:392 JLINK_WriteReg(CFBP, 0x00000000)  returns 0x00 (0000ms, 0765ms total)
T1448 001:392 JLINK_SetBPEx(Addr = 0x20000000, Type = 0xFFFFFFF2)  returns 0x0000000D (0000ms, 0765ms total)
T1448 001:392 JLINK_Go() (0002ms, 0767ms total)
T1448 001:394 JLINK_IsHalted()  returns FALSE (0001ms, 0768ms total)
T1448 001:397 JLINK_IsHalted()  returns FALSE (0000ms, 0767ms total)
T1448 001:399 JLINK_IsHalted()  returns FALSE (0000ms, 0767ms total)
T1448 001:409 JLINK_IsHalted()  returns FALSE (0000ms, 0767ms total)
T1448 001:411 JLINK_IsHalted()  returns FALSE (0000ms, 0767ms total)
T1448 001:413 JLINK_IsHalted()  returns FALSE (0000ms, 0767ms total)
T1448 001:415 JLINK_IsHalted()  returns FALSE (0000ms, 0767ms total)
T1448 001:423 JLINK_IsHalted()  returns FALSE (0000ms, 0767ms total)
T1448 001:425 JLINK_IsHalted() -- CPU_ReadMem(2 bytes @ 0x20000000)  returns TRUE (0004ms, 0771ms total)
T1448 001:429 JLINK_ReadReg(R15 (PC))  returns 0x20000000 (0000ms, 0767ms total)
T1448 001:429 JLINK_ClrBPEx(BPHandle = 0x0000000D)  returns 0x00 (0000ms, 0767ms total)
T1448 001:429 JLINK_ReadReg(R0)  returns 0x00000000 (0000ms, 0767ms total)
T1448 001:430 JLINK_WriteMem(0x20000164, 0x0400 Bytes, ...) -- Data:  BF 3E BF 3E BF 3E C7 3F C7 3E BF 3F BF 3F BF 3F ... -- CPU_WriteMem(1024 bytes @ 0x20000164)  returns 0x400 (0013ms, 0780ms total)
T1448 001:443 JLINK_WriteReg(R0, 0x08002400)  returns 0x00 (0000ms, 0780ms total)
T1448 001:443 JLINK_WriteReg(R1, 0x00000400)  returns 0x00 (0000ms, 0780ms total)
T1448 001:443 JLINK_WriteReg(R2, 0x20000164)  returns 0x00 (0000ms, 0780ms total)
T1448 001:443 JLINK_WriteReg(R3, 0x00000000)  returns 0x00 (0000ms, 0780ms total)
T1448 001:443 JLINK_WriteReg(R4, 0x00000000)  returns 0x00 (0000ms, 0780ms total)
T1448 001:443 JLINK_WriteReg(R5, 0x00000000)  returns 0x00 (0000ms, 0780ms total)
T1448 001:443 JLINK_WriteReg(R6, 0x00000000)  returns 0x00 (0000ms, 0780ms total)
T1448 001:443 JLINK_WriteReg(R7, 0x00000000)  returns 0x00 (0000ms, 0780ms total)
T1448 001:443 JLINK_WriteReg(R8, 0x00000000)  returns 0x00 (0000ms, 0780ms total)
T1448 001:443 JLINK_WriteReg(R9, 0x20000160)  returns 0x00 (0000ms, 0780ms total)
T1448 001:443 JLINK_WriteReg(R10, 0x00000000)  returns 0x00 (0000ms, 0780ms total)
T1448 001:443 JLINK_WriteReg(R11, 0x00000000)  returns 0x00 (0000ms, 0780ms total)
T1448 001:443 JLINK_WriteReg(R12, 0x00000000)  returns 0x00 (0000ms, 0780ms total)
T1448 001:443 JLINK_WriteReg(R13 (SP), 0x20000800)  returns 0x00 (0000ms, 0780ms total)
T1448 001:443 JLINK_WriteReg(R14, 0x20000001)  returns 0x00 (0000ms, 0780ms total)
T1448 001:443 JLINK_WriteReg(R15 (PC), 0x200000F4)  returns 0x00 (0000ms, 0780ms total)
T1448 001:443 JLINK_WriteReg(XPSR, 0x01000000)  returns 0x00 (0000ms, 0780ms total)
T1448 001:443 JLINK_WriteReg(MSP, 0x20000800)  returns 0x00 (0000ms, 0780ms total)
T1448 001:443 JLINK_WriteReg(PSP, 0x20000800)  returns 0x00 (0000ms, 0780ms total)
T1448 001:443 JLINK_WriteReg(CFBP, 0x00000000)  returns 0x00 (0000ms, 0780ms total)
T1448 001:443 JLINK_SetBPEx(Addr = 0x20000000, Type = 0xFFFFFFF2)  returns 0x0000000E (0000ms, 0780ms total)
T1448 001:443 JLINK_Go() (0003ms, 0783ms total)
T1448 001:446 JLINK_IsHalted()  returns FALSE (0000ms, 0783ms total)
T1448 001:453 JLINK_IsHalted()  returns FALSE (0000ms, 0783ms total)
T1448 001:455 JLINK_IsHalted()  returns FALSE (0000ms, 0783ms total)
T1448 001:457 JLINK_IsHalted()  returns FALSE (0000ms, 0783ms total)
T1448 001:459 JLINK_IsHalted()  returns FALSE (0000ms, 0783ms total)
T1448 001:461 JLINK_IsHalted()  returns FALSE (0000ms, 0783ms total)
T1448 001:463 JLINK_IsHalted()  returns FALSE (0000ms, 0783ms total)
T1448 001:465 JLINK_IsHalted()  returns FALSE (0000ms, 0783ms total)
T1448 001:467 JLINK_IsHalted()  returns FALSE (0000ms, 0783ms total)
T1448 001:469 JLINK_IsHalted()  returns FALSE (0000ms, 0783ms total)
T1448 001:472 JLINK_IsHalted()  returns FALSE (0000ms, 0783ms total)
T1448 001:474 JLINK_IsHalted()  returns FALSE (0000ms, 0783ms total)
T1448 001:476 JLINK_IsHalted()  returns FALSE (0000ms, 0783ms total)
T1448 001:478 JLINK_IsHalted() -- CPU_ReadMem(2 bytes @ 0x20000000)  returns TRUE (0004ms, 0787ms total)
T1448 001:482 JLINK_ReadReg(R15 (PC))  returns 0x20000000 (0000ms, 0783ms total)
T1448 001:482 JLINK_ClrBPEx(BPHandle = 0x0000000E)  returns 0x00 (0000ms, 0783ms total)
T1448 001:482 JLINK_ReadReg(R0)  returns 0x00000000 (0000ms, 0783ms total)
T1448 001:483 JLINK_WriteMem(0x20000164, 0x0400 Bytes, ...) -- Data:  CF 5F CF 5F CF 5F C7 3F C7 5F C7 5F C7 5F C7 5F ... -- CPU_WriteMem(1024 bytes @ 0x20000164)  returns 0x400 (0012ms, 0795ms total)
T1448 001:496 JLINK_WriteReg(R0, 0x08002800)  returns 0x00 (0000ms, 0795ms total)
T1448 001:496 JLINK_WriteReg(R1, 0x00000400)  returns 0x00 (0000ms, 0795ms total)
T1448 001:496 JLINK_WriteReg(R2, 0x20000164)  returns 0x00 (0000ms, 0795ms total)
T1448 001:496 JLINK_WriteReg(R3, 0x00000000)  returns 0x00 (0000ms, 0795ms total)
T1448 001:496 JLINK_WriteReg(R4, 0x00000000)  returns 0x00 (0000ms, 0795ms total)
T1448 001:496 JLINK_WriteReg(R5, 0x00000000)  returns 0x00 (0000ms, 0795ms total)
T1448 001:496 JLINK_WriteReg(R6, 0x00000000)  returns 0x00 (0000ms, 0795ms total)
T1448 001:496 JLINK_WriteReg(R7, 0x00000000)  returns 0x00 (0000ms, 0795ms total)
T1448 001:496 JLINK_WriteReg(R8, 0x00000000)  returns 0x00 (0000ms, 0795ms total)
T1448 001:496 JLINK_WriteReg(R9, 0x20000160)  returns 0x00 (0000ms, 0795ms total)
T1448 001:496 JLINK_WriteReg(R10, 0x00000000)  returns 0x00 (0000ms, 0795ms total)
T1448 001:496 JLINK_WriteReg(R11, 0x00000000)  returns 0x00 (0000ms, 0795ms total)
T1448 001:496 JLINK_WriteReg(R12, 0x00000000)  returns 0x00 (0000ms, 0795ms total)
T1448 001:496 JLINK_WriteReg(R13 (SP), 0x20000800)  returns 0x00 (0000ms, 0795ms total)
T1448 001:496 JLINK_WriteReg(R14, 0x20000001)  returns 0x00 (0000ms, 0795ms total)
T1448 001:496 JLINK_WriteReg(R15 (PC), 0x200000F4)  returns 0x00 (0000ms, 0795ms total)
T1448 001:496 JLINK_WriteReg(XPSR, 0x01000000)  returns 0x00 (0000ms, 0795ms total)
T1448 001:496 JLINK_WriteReg(MSP, 0x20000800)  returns 0x00 (0000ms, 0795ms total)
T1448 001:496 JLINK_WriteReg(PSP, 0x20000800)  returns 0x00 (0000ms, 0795ms total)
T1448 001:496 JLINK_WriteReg(CFBP, 0x00000000)  returns 0x00 (0000ms, 0795ms total)
T1448 001:496 JLINK_SetBPEx(Addr = 0x20000000, Type = 0xFFFFFFF2)  returns 0x0000000F (0000ms, 0795ms total)
T1448 001:496 JLINK_Go() (0002ms, 0797ms total)
T1448 001:498 JLINK_IsHalted()  returns FALSE (0001ms, 0798ms total)
T1448 001:503 JLINK_IsHalted()  returns FALSE (0000ms, 0797ms total)
